time	V(out)	V(rst)	V(vin)
0.000000000000000e+000	-7.547666e-001	-8.006188e-001	0.000000e+000
9.733070927305529e-006	-7.540273e-001	-8.006188e-001	0.000000e+000
9.772229171109729e-006	-7.540244e-001	-8.006188e-001	0.000000e+000
9.773099323518922e-006	-7.540243e-001	-8.006188e-001	-1.740305e-002
9.776579933155679e-006	-7.540229e-001	-8.006188e-001	-8.701524e-002
9.781220746004694e-006	-7.540036e-001	-8.006188e-001	-1.798315e-001
9.790502371702709e-006	-7.538082e-001	-8.006188e-001	-3.654640e-001
9.807341706818666e-006	-7.526674e-001	-8.006188e-001	-7.022507e-001
9.822968288680195e-006	-7.506148e-001	-8.006188e-001	-1.014782e+000
9.847562027419046e-006	-7.454492e-001	-8.006188e-001	-1.506657e+000
9.861968183888455e-006	-7.413252e-001	-8.006188e-001	-1.794780e+000
9.872229171109732e-006	-7.378954e-001	-8.006188e-001	-2.000000e+000
9.873255269831862e-006	-7.375280e-001	-8.006188e-001	-2.000000e+000
9.875307467276123e-006	-7.367853e-001	-8.006188e-001	-2.000000e+000
9.879411862164631e-006	-7.352598e-001	-8.006188e-001	-2.000000e+000
9.887620651941647e-006	-7.321131e-001	-8.006188e-001	-2.000000e+000
9.904038231495693e-006	-7.257261e-001	-8.006188e-001	-2.000000e+000
9.918876272871452e-006	-7.199700e-001	-8.006188e-001	-2.000000e+000
9.940364589530282e-006	-7.116910e-001	-8.006188e-001	-2.000000e+000
9.963101319653391e-006	-7.030121e-001	-8.006188e-001	-2.000000e+000
1.005451875574915e-005	-6.690884e-001	-8.006188e-001	-2.000000e+000
1.015802573854130e-005	-6.325108e-001	-8.006188e-001	-2.000000e+000
1.036503970412558e-005	-5.647729e-001	-8.006188e-001	-2.000000e+000
1.069437198655330e-005	-4.703194e-001	-8.006188e-001	-2.000000e+000
1.120234172709290e-005	-3.512922e-001	-8.006188e-001	-2.000000e+000
1.188013495774451e-005	-2.313876e-001	-8.006188e-001	-2.000000e+000
1.257867882892436e-005	-1.417341e-001	-8.006188e-001	-2.000000e+000
1.323220696817090e-005	-7.960718e-002	-8.006188e-001	-2.000000e+000
1.384654553009861e-005	-3.460782e-002	-8.006188e-001	-2.000000e+000
1.390144722744105e-005	-3.110184e-002	-8.006188e-001	-2.000000e+000
1.395634892478349e-005	-2.766069e-002	-8.006188e-001	-2.000000e+000
1.401125062212593e-005	-2.428438e-002	-8.006188e-001	-2.000000e+000
1.406615231946837e-005	-2.097291e-002	-8.006188e-001	-2.000000e+000
1.412105401681081e-005	-1.772627e-002	-8.006188e-001	-2.000000e+000
1.417595571415325e-005	-1.454447e-002	-8.006188e-001	-2.000000e+000
1.423085741149569e-005	-1.142750e-002	-8.006188e-001	-2.000000e+000
1.430772354100409e-005	-7.159711e-003	-8.006187e-001	-2.000000e+000
1.433377168059427e-005	-5.738716e-003	-8.006226e-001	-2.000000e+000
1.435981982018445e-005	-4.329732e-003	-8.006250e-001	-2.000000e+000
1.438586795977463e-005	-2.932760e-003	-8.006257e-001	-2.000000e+000
1.441191609936481e-005	-1.547798e-003	-8.006248e-001	-2.000000e+000
1.443796423895499e-005	-1.748475e-004	-8.006223e-001	-2.000000e+000
1.446401237854517e-005	1.186092e-003	-8.006182e-001	-2.000000e+000
1.449006051813535e-005	2.535020e-003	-8.006126e-001	-2.000000e+000
1.451243190430528e-005	3.684427e-003	-8.006024e-001	-2.000000e+000
1.453798881516376e-005	4.987312e-003	-8.005834e-001	-2.000000e+000
1.454238626178234e-005	5.210247e-003	-8.005772e-001	-2.000000e+000
1.455118115501950e-005	5.655484e-003	-8.005562e-001	-2.000000e+000
1.455745219874735e-005	5.972181e-003	-8.005328e-001	-2.000000e+000
1.456110884017914e-005	6.156552e-003	-8.005095e-001	-2.000000e+000
1.456537075052114e-005	6.371167e-003	-8.004689e-001	-2.000000e+000
1.456676409496420e-005	6.441267e-003	-8.004487e-001	-2.000000e+000
1.456887957644720e-005	6.547638e-003	-8.004065e-001	-2.000000e+000
1.456964799748739e-005	6.586258e-003	-8.003868e-001	-2.000000e+000
1.457036316037157e-005	6.622192e-003	-8.003642e-001	-2.000000e+000
1.457082077884541e-005	6.645182e-003	-8.003475e-001	-2.000000e+000
1.457120615088963e-005	6.664540e-003	-8.003314e-001	-2.000000e+000
1.457152777357659e-005	6.680693e-003	-8.003157e-001	-2.000000e+000
1.457185502552798e-005	6.697128e-003	-8.002959e-001	-2.000000e+000
1.457222029832938e-005	6.715470e-003	-8.002661e-001	-2.000000e+000
1.457260407294623e-005	6.734738e-003	-8.002195e-001	-2.000000e+000
1.457302038270645e-005	6.755637e-003	-8.001377e-001	-2.000000e+000
1.457347055979890e-005	6.778234e-003	-7.999881e-001	-2.000000e+000
1.457395550291595e-005	6.802571e-003	-7.997090e-001	-2.000000e+000
1.457449742349402e-005	6.829764e-003	-7.991348e-001	-2.000000e+000
1.457532681900606e-005	6.871373e-003	-7.975715e-001	-2.000000e+000
1.457625622251475e-005	6.917986e-003	-7.946427e-001	-2.000000e+000
1.457721410863899e-005	6.966012e-003	-7.897344e-001	-2.000000e+000
1.457829161748183e-005	7.020017e-003	-7.809916e-001	-2.000000e+000
1.457938899447939e-005	7.074997e-003	-7.669668e-001	-2.000000e+000
1.458060364340711e-005	7.135825e-003	-7.427581e-001	-2.000000e+000
1.458186134334784e-005	7.198773e-003	-7.037758e-001	-2.000000e+000
1.458322453152845e-005	7.266951e-003	-6.384035e-001	-2.000000e+000
1.458463641597760e-005	7.337491e-003	-5.429751e-001	-2.000000e+000
1.458526893842289e-005	7.369062e-003	-4.882485e-001	-2.000000e+000
1.458557951007767e-005	7.384556e-003	-4.570235e-001	-2.000000e+000
1.458571810341640e-005	7.391468e-003	-4.421450e-001	-2.000000e+000
1.458578892434397e-005	7.394999e-003	-4.343025e-001	-2.000000e+000
1.458584318075217e-005	7.397704e-003	-4.281901e-001	-2.000000e+000
1.458590943098363e-005	7.401008e-003	-4.206298e-001	-2.000000e+000
1.458597113686501e-005	7.404084e-003	-4.134968e-001	-2.000000e+000
1.458604970428343e-005	7.408000e-003	-4.042910e-001	-2.000000e+000
1.458612990372202e-005	7.411997e-003	-3.947554e-001	-2.000000e+000
1.458623783936512e-005	7.417376e-003	-3.817079e-001	-2.000000e+000
1.458636261485870e-005	7.423593e-003	-3.663325e-001	-2.000000e+000
1.458655255220569e-005	7.433055e-003	-3.424160e-001	-2.000000e+000
1.458690102857101e-005	7.450405e-003	-2.976987e-001	-2.000000e+000
1.458694211972387e-005	7.452450e-003	-2.923358e-001	-2.000000e+000
1.458698321087674e-005	7.454495e-003	-2.869858e-001	-2.000000e+000
1.458702430202960e-005	7.456540e-003	-2.816487e-001	-2.000000e+000
1.458706539318246e-005	7.458585e-003	-2.763246e-001	-2.000000e+000
1.458710648433533e-005	7.460630e-003	-2.710133e-001	-2.000000e+000
1.458714757548819e-005	7.462674e-003	-2.657150e-001	-2.000000e+000
1.458718866664105e-005	7.464718e-003	-2.604296e-001	-2.000000e+000
1.458727868186749e-005	7.469195e-003	-2.490321e-001	-2.000000e+000
1.458745871232034e-005	7.478148e-003	-2.268413e-001	-2.000000e+000
1.458770805931343e-005	7.490542e-003	-1.969371e-001	-2.000000e+000
1.458782015660068e-005	7.496111e-003	-1.836151e-001	-2.000000e+000
1.458794218375249e-005	7.502172e-003	-1.687873e-001	-2.000000e+000
1.458808235434976e-005	7.509132e-003	-1.508517e-001	-2.000000e+000
1.458822399620520e-005	7.516163e-003	-1.313456e-001	-2.000000e+000
1.458837590692632e-005	7.523701e-003	-1.083474e-001	-2.000000e+000
1.458857996786315e-005	7.533822e-003	-7.384990e-002	-2.000000e+000
1.458887499460117e-005	7.548444e-003	-1.849581e-002	-2.000000e+000
1.458920350575833e-005	7.564710e-003	4.785394e-002	-2.000000e+000
1.458959869335999e-005	7.584254e-003	1.293626e-001	-2.000000e+000
1.459001367920831e-005	7.604749e-003	2.107621e-001	-2.000000e+000
1.459046856601274e-005	7.627181e-003	2.880291e-001	-2.000000e+000
1.459099377724635e-005	7.653049e-003	3.571495e-001	-2.000000e+000
1.459140205331105e-005	7.673113e-003	3.931665e-001	-2.000000e+000
1.459171278369631e-005	7.688336e-003	4.082355e-001	-2.000000e+000
1.459196108399467e-005	7.700468e-003	4.129269e-001	-2.000000e+000
1.459224857101474e-005	7.714479e-003	4.121565e-001	-2.000000e+000
1.459269747106406e-005	7.736280e-003	4.043941e-001	-2.000000e+000
1.459316538609698e-005	7.758898e-003	3.923586e-001	-2.000000e+000
1.459364476478203e-005	7.781943e-003	3.784304e-001	-2.000000e+000
1.459412064208292e-005	7.804675e-003	3.647659e-001	-2.000000e+000
1.459461163191302e-005	7.827962e-003	3.515592e-001	-2.000000e+000
1.459512770221051e-005	7.852247e-003	3.388823e-001	-2.000000e+000
1.459569180849907e-005	7.878564e-003	3.266285e-001	-2.000000e+000
1.459638129441392e-005	7.910417e-003	3.139576e-001	-2.000000e+000
1.459690852144520e-005	7.934557e-003	3.066165e-001	-2.000000e+000
1.459753690778257e-005	7.963109e-003	3.013034e-001	-2.000000e+000
1.459812220788267e-005	7.989514e-003	3.001321e-001	-2.000000e+000
1.459898239563904e-005	8.028051e-003	3.039816e-001	-2.000000e+000
1.459990401560386e-005	8.069062e-003	3.120854e-001	-2.000000e+000
1.460035995592314e-005	8.089268e-003	3.168952e-001	-2.000000e+000
1.460084995235285e-005	8.110937e-003	3.218264e-001	-2.000000e+000
1.460134840556973e-005	8.132941e-003	3.259834e-001	-2.000000e+000
1.460182099592781e-005	8.153773e-003	3.289334e-001	-2.000000e+000
1.460223713813496e-005	8.172097e-003	3.306710e-001	-2.000000e+000
1.460261009695375e-005	8.188506e-003	3.315601e-001	-2.000000e+000
1.460296023972466e-005	8.203899e-003	3.318057e-001	-2.000000e+000
1.460366052526649e-005	8.234661e-003	3.313257e-001	-2.000000e+000
1.460413722633835e-005	8.255582e-003	3.305076e-001	-2.000000e+000
1.460466621760226e-005	8.278782e-003	3.292328e-001	-2.000000e+000
1.460524046111200e-005	8.303949e-003	3.277498e-001	-2.000000e+000
1.460581925450430e-005	8.329294e-003	3.263409e-001	-2.000000e+000
1.460636670447716e-005	8.353250e-003	3.252156e-001	-2.000000e+000
1.460686323759432e-005	8.374964e-003	3.244348e-001	-2.000000e+000
1.460727852611379e-005	8.393115e-003	3.239883e-001	-2.000000e+000
1.460769113313631e-005	8.411140e-003	3.237340e-001	-2.000000e+000
1.460809703460266e-005	8.428865e-003	3.236731e-001	-2.000000e+000
1.460889647380377e-005	8.463752e-003	3.238789e-001	-2.000000e+000
1.460943264051199e-005	8.487135e-003	3.241790e-001	-2.000000e+000
1.461000122943249e-005	8.511920e-003	3.246056e-001	-2.000000e+000
1.461057797745952e-005	8.537049e-003	3.250547e-001	-2.000000e+000
1.461115194545784e-005	8.562045e-003	3.254642e-001	-2.000000e+000
1.461170280533072e-005	8.586024e-003	3.257880e-001	-2.000000e+000
1.461221404864078e-005	8.608270e-003	3.260127e-001	-2.000000e+000
1.461345297657818e-005	8.662141e-003	3.262382e-001	-2.000000e+000
1.461422397242667e-005	8.695639e-003	3.262111e-001	-2.000000e+000
1.461478758575504e-005	8.720113e-003	3.261558e-001	-2.000000e+000
1.461529314820559e-005	8.742056e-003	3.260885e-001	-2.000000e+000
1.461579314430614e-005	8.763748e-003	3.260219e-001	-2.000000e+000
1.461669257134145e-005	8.802745e-003	3.259292e-001	-2.000000e+000
1.461788923118145e-005	8.854579e-003	3.259034e-001	-2.000000e+000
1.461961725373767e-005	8.929326e-003	3.260226e-001	-2.000000e+000
1.462086952478142e-005	8.983417e-003	3.261544e-001	-2.000000e+000
1.462316998222098e-005	9.082613e-003	3.263531e-001	-2.000000e+000
1.462577230758998e-005	9.194552e-003	3.264810e-001	-2.000000e+000
1.463144055247735e-005	9.437334e-003	3.267872e-001	-2.000000e+000
1.463710879736472e-005	9.678748e-003	3.270888e-001	-2.000000e+000
1.464277704225209e-005	9.918793e-003	3.273857e-001	-2.000000e+000
1.464844528713946e-005	1.015747e-002	3.276780e-001	-2.000000e+000
1.465411353202683e-005	1.039478e-002	3.279657e-001	-2.000000e+000
1.465978177691420e-005	1.063072e-002	3.282487e-001	-2.000000e+000
1.466545002180157e-005	1.086529e-002	3.285270e-001	-2.000000e+000
1.467896270156712e-005	1.141923e-002	3.291549e-001	-2.000000e+000
1.470015023422926e-005	1.227272e-002	3.301013e-001	-2.000000e+000
1.470416648556097e-005	1.243240e-002	3.302710e-001	-2.000000e+000
1.470665781825146e-005	1.253114e-002	3.303748e-001	-2.000000e+000
1.470914915094194e-005	1.262964e-002	3.304776e-001	-2.000000e+000
1.471164048363243e-005	1.272787e-002	3.305793e-001	-2.000000e+000
1.471413181632291e-005	1.282586e-002	3.306800e-001	-2.000000e+000
1.471662314901339e-005	1.292359e-002	3.307796e-001	-2.000000e+000
1.471911448170388e-005	1.302108e-002	3.308780e-001	-2.000000e+000
1.472160581439436e-005	1.311830e-002	3.309755e-001	-2.000000e+000
1.472288229733049e-005	1.316802e-002	3.310079e-001	-2.000000e+000
1.472415878026663e-005	1.321768e-002	3.310419e-001	-2.000000e+000
1.472543526320276e-005	1.326726e-002	3.310774e-001	-2.000000e+000
1.472671174613890e-005	1.331678e-002	3.311146e-001	-2.000000e+000
1.472798822907503e-005	1.336624e-002	3.311534e-001	-2.000000e+000
1.472926471201117e-005	1.341562e-002	3.311938e-001	-2.000000e+000
1.473054119494730e-005	1.346495e-002	3.312358e-001	-2.000000e+000
1.474642844719167e-005	1.407328e-002	3.318331e-001	-2.000000e+000
1.476231569943604e-005	1.467138e-002	3.323966e-001	-2.000000e+000
1.477820295168041e-005	1.525924e-002	3.329264e-001	-2.000000e+000
1.479409020392479e-005	1.583685e-002	3.334225e-001	-2.000000e+000
1.480997745616916e-005	1.640422e-002	3.338849e-001	-2.000000e+000
1.482586470841353e-005	1.696135e-002	3.343136e-001	-2.000000e+000
1.484175196065790e-005	1.750824e-002	3.347085e-001	-2.000000e+000
1.489738500823321e-005	1.934341e-002	3.359703e-001	-2.000000e+000
1.496135235662450e-005	2.130092e-002	3.371405e-001	-2.000000e+000
1.503354720706624e-005	2.331721e-002	3.381782e-001	-2.000000e+000
1.510343538970162e-005	2.507794e-002	3.389482e-001	-2.000000e+000
1.519105504805827e-005	2.702703e-002	3.396696e-001	-2.000000e+000
1.528168608700048e-005	2.874999e-002	3.402099e-001	-2.000000e+000
1.539742822620275e-005	3.053536e-002	3.406858e-001	-2.000000e+000
1.551549779889164e-005	3.189943e-002	3.410045e-001	-2.000000e+000
1.567022677039365e-005	3.303219e-002	3.412598e-001	-2.000000e+000
1.582928236122826e-005	3.347450e-002	3.414097e-001	-2.000000e+000
1.604903532368573e-005	3.299220e-002	3.415149e-001	-2.000000e+000
1.627369976842108e-005	3.131371e-002	3.415641e-001	-2.000000e+000
1.661741038997856e-005	2.674792e-002	3.415915e-001	-2.000000e+000
1.695579427223642e-005	2.022193e-002	3.415786e-001	-2.000000e+000
1.702394500453480e-005	1.869242e-002	3.415928e-001	-2.000000e+000
1.709209573683319e-005	1.710363e-002	3.415979e-001	-2.000000e+000
1.716024646913157e-005	1.545557e-002	3.415938e-001	-2.000000e+000
1.722839720142995e-005	1.374822e-002	3.415805e-001	-2.000000e+000
1.729654793372834e-005	1.198160e-002	3.415581e-001	-2.000000e+000
1.736469866602672e-005	1.015569e-002	3.415265e-001	-2.000000e+000
1.743284939832511e-005	8.270513e-003	3.414858e-001	-2.000000e+000
1.744558539754486e-005	7.912037e-003	3.414750e-001	-2.000000e+000
1.746200769028591e-005	7.447183e-003	3.414568e-001	-2.000000e+000
1.746735803197871e-005	7.295101e-003	3.414474e-001	-2.000000e+000
1.746997920879360e-005	7.220482e-003	3.414384e-001	-2.000000e+000
1.747142641768085e-005	7.179251e-003	3.414281e-001	-2.000000e+000
1.747275970045456e-005	7.141246e-003	3.414092e-001	-2.000000e+000
1.747408929954203e-005	7.103328e-003	3.413774e-001	-2.000000e+000
1.747510093994833e-005	7.074465e-003	3.413421e-001	-2.000000e+000
1.747620483605748e-005	7.042957e-003	3.412920e-001	-2.000000e+000
1.747794321098109e-005	6.993313e-003	3.411998e-001	-2.000000e+000
1.747960971419683e-005	6.945694e-003	3.411026e-001	-2.000000e+000
1.748161780931749e-005	6.888277e-003	3.409780e-001	-2.000000e+000
1.748342632460585e-005	6.836534e-003	3.408591e-001	-2.000000e+000
1.748668089246993e-005	6.743347e-003	3.406303e-001	-2.000000e+000
1.749007035235053e-005	6.646204e-003	3.403748e-001	-2.000000e+000
1.749574209192541e-005	6.483463e-003	3.399175e-001	-2.000000e+000
1.750119213017087e-005	6.326880e-003	3.394439e-001	-2.000000e+000
1.750956183531339e-005	6.086085e-003	3.386381e-001	-2.000000e+000
1.752200265815894e-005	5.727571e-003	3.372626e-001	-2.000000e+000
1.753731444811164e-005	5.285699e-003	3.351305e-001	-2.000000e+000
1.756226058583998e-005	4.565886e-003	3.305278e-001	-2.000000e+000
1.757918970924029e-005	4.078636e-003	3.260682e-001	-2.000000e+000
1.759597384335189e-005	3.598107e-003	3.196979e-001	-2.000000e+000
1.760694474156618e-005	3.286138e-003	3.135717e-001	-2.000000e+000
1.761851114434988e-005	2.959932e-003	3.043064e-001	-2.000000e+000
1.762518286351016e-005	2.773352e-003	2.966554e-001	-2.000000e+000
1.763114720014652e-005	2.607781e-003	2.870899e-001	-2.000000e+000
1.763515222830990e-005	2.497347e-003	2.785758e-001	-2.000000e+000
1.763782653887147e-005	2.423979e-003	2.713831e-001	-2.000000e+000
1.763992087333802e-005	2.366748e-003	2.647584e-001	-2.000000e+000
1.764159676157111e-005	2.321104e-003	2.585733e-001	-2.000000e+000
1.764336741331732e-005	2.273032e-003	2.489826e-001	-2.000000e+000
1.764510753607129e-005	2.225948e-003	2.332766e-001	-2.000000e+000
1.764607375979385e-005	2.199875e-003	2.196237e-001	-2.000000e+000
1.764718611137554e-005	2.169925e-003	1.994912e-001	-2.000000e+000
1.764833003319040e-005	2.139206e-003	1.776687e-001	-2.000000e+000
1.764919248685314e-005	2.116102e-003	1.621603e-001	-2.000000e+000
1.765015223650575e-005	2.090455e-003	1.467652e-001	-2.000000e+000
1.765115761282062e-005	2.063662e-003	1.321758e-001	-2.000000e+000
1.765204198731564e-005	2.040162e-003	1.199520e-001	-2.000000e+000
1.765293580445671e-005	2.016475e-003	1.074526e-001	-2.000000e+000
1.765391481835554e-005	1.990610e-003	9.307668e-002	-2.000000e+000
1.765524573719420e-005	1.955580e-003	7.260273e-002	-2.000000e+000
1.765675484982832e-005	1.916045e-003	4.900857e-002	-2.000000e+000
1.765821761475430e-005	1.877914e-003	2.664024e-002	-2.000000e+000
1.766027361838059e-005	1.824627e-003	-3.480132e-003	-2.000000e+000
1.766219444187746e-005	1.775167e-003	-3.030124e-002	-2.000000e+000
1.766463210884289e-005	1.712837e-003	-6.227357e-002	-2.000000e+000
1.766740596709019e-005	1.642493e-003	-9.507001e-002	-2.000000e+000
1.767094185803992e-005	1.553686e-003	-1.301596e-001	-2.000000e+000
1.767494395476502e-005	1.454267e-003	-1.615415e-001	-2.000000e+000
1.767709708449557e-005	1.401232e-003	-1.739845e-001	-2.000000e+000
1.767864776097637e-005	1.363219e-003	-1.802620e-001	-2.000000e+000
1.767974961478430e-005	1.336295e-003	-1.834878e-001	-2.000000e+000
1.768054465897781e-005	1.316912e-003	-1.852246e-001	-2.000000e+000
1.768118362906869e-005	1.301359e-003	-1.863374e-001	-2.000000e+000
1.768187571824225e-005	1.284537e-003	-1.874205e-001	-2.000000e+000
1.768263310700030e-005	1.266157e-003	-1.886621e-001	-2.000000e+000
1.768329740025930e-005	1.250061e-003	-1.899636e-001	-2.000000e+000
1.768412803558309e-005	1.229963e-003	-1.919959e-001	-2.000000e+000
1.768499639072569e-005	1.208986e-003	-1.946676e-001	-2.000000e+000
1.768635689685976e-005	1.176189e-003	-1.999473e-001	-2.000000e+000
1.768802395340401e-005	1.136107e-003	-2.082101e-001	-2.000000e+000
1.768965672087140e-005	1.096959e-003	-2.191649e-001	-2.000000e+000
1.769141167077213e-005	1.054997e-003	-2.364940e-001	-2.000000e+000
1.769344063537284e-005	1.006637e-003	-2.681031e-001	-2.000000e+000
1.769548724214337e-005	9.580359e-004	-3.210976e-001	-2.000000e+000
1.769746346135715e-005	9.113021e-004	-4.067694e-001	-2.000000e+000
1.769920172391145e-005	8.703906e-004	-5.200453e-001	-2.000000e+000
1.769992565069805e-005	8.534165e-004	-5.833107e-001	-2.000000e+000
1.770028833059604e-005	8.449292e-004	-6.212407e-001	-2.000000e+000
1.770058622651102e-005	8.379671e-004	-6.548470e-001	-2.000000e+000
1.770072160367013e-005	8.348060e-004	-6.705402e-001	-2.000000e+000
1.770080276591154e-005	8.329118e-004	-6.799900e-001	-2.000000e+000
1.770090903913060e-005	8.304325e-004	-6.922703e-001	-2.000000e+000
1.770096103921504e-005	8.292198e-004	-6.982027e-001	-2.000000e+000
1.770101469872867e-005	8.279688e-004	-7.042152e-001	-2.000000e+000
1.770108727705852e-005	8.262771e-004	-7.121700e-001	-2.000000e+000
1.770116116024109e-005	8.245556e-004	-7.200164e-001	-2.000000e+000
1.770124810442580e-005	8.225306e-004	-7.288524e-001	-2.000000e+000
1.770134210632488e-005	8.203422e-004	-7.378277e-001	-2.000000e+000
1.770146304438346e-005	8.175282e-004	-7.483662e-001	-2.000000e+000
